time,"I(IDC|XIN)","P(B6|XIN)","I(ROUT)"
0.000000e+00,0.000000e+00,0.000000e+00,0.000000e+00
1.000000e-13,2.000000e-08,2.161112e-04,6.667826e-10
2.000000e-13,4.000000e-08,8.253142e-04,2.490833e-09
3.000000e-13,6.000000e-08,1.904409e-03,5.608037e-09
4.000000e-13,8.000000e-08,3.461325e-03,9.925522e-09
5.000000e-13,1.000000e-07,5.474180e-03,1.526357e-08
6.000000e-13,1.200000e-07,7.913810e-03,2.143476e-08
7.000000e-13,1.400000e-07,1.075258e-02,2.827319e-08
8.000000e-13,1.600000e-07,1.396648e-02,3.563964e-08
9.000000e-13,1.800000e-07,1.753493e-02,4.341879e-08
1.000000e-12,2.000000e-07,2.144011e-02,5.151505e-08
1.100000e-12,2.200000e-07,2.566647e-02,5.984899e-08
1.200000e-12,2.400000e-07,3.020022e-02,6.835445e-08
1.300000e-12,2.600000e-07,3.502909e-02,7.697634e-08
1.400000e-12,2.800000e-07,4.014205e-02,8.566874e-08
1.500000e-12,3.000000e-07,4.552911e-02,9.439342e-08
1.600000e-12,3.200000e-07,5.118114e-02,1.031185e-07
1.700000e-12,3.400000e-07,5.708975e-02,1.118176e-07
1.800000e-12,3.600000e-07,6.324718e-02,1.204687e-07
1.900000e-12,3.800000e-07,6.964618e-02,1.290534e-07
2.000000e-12,4.000000e-07,7.627995e-02,1.375569e-07
2.100000e-12,4.200000e-07,8.314208e-02,1.459666e-07
2.200000e-12,4.400000e-07,9.022651e-02,1.542724e-07
2.300000e-12,4.600000e-07,9.752745e-02,1.624660e-07
2.400000e-12,4.800000e-07,1.050394e-01,1.705408e-07
2.500000e-12,5.000000e-07,1.127571e-01,1.784915e-07
2.600000e-12,5.200000e-07,1.206754e-01,1.863141e-07
2.700000e-12,5.400000e-07,1.287895e-01,1.940054e-07
2.800000e-12,5.600000e-07,1.370947e-01,2.015632e-07
2.900000e-12,5.800000e-07,1.455865e-01,2.089862e-07
3.000000e-12,6.000000e-07,1.542606e-01,2.162733e-07
3.100000e-12,6.200000e-07,1.631126e-01,2.234244e-07
3.200000e-12,6.400000e-07,1.721386e-01,2.304397e-07
3.300000e-12,6.600000e-07,1.813346e-01,2.373198e-07
3.400000e-12,6.800000e-07,1.906969e-01,2.440658e-07
3.500000e-12,7.000000e-07,2.002219e-01,2.506790e-07
3.600000e-12,7.200000e-07,2.099059e-01,2.571610e-07
3.700000e-12,7.400000e-07,2.197457e-01,2.635138e-07
3.800000e-12,7.600000e-07,2.297379e-01,2.697394e-07
3.900000e-12,7.800000e-07,2.398796e-01,2.758403e-07
4.000000e-12,8.000000e-07,2.501676e-01,2.818189e-07
4.100000e-12,8.200000e-07,2.605991e-01,2.876778e-07
4.200000e-12,8.400000e-07,2.711714e-01,2.934200e-07
4.300000e-12,8.600000e-07,2.818819e-01,2.990482e-07
4.400000e-12,8.800000e-07,2.927280e-01,3.045656e-07
4.500000e-12,9.000000e-07,3.037074e-01,3.099754e-07
4.600000e-12,9.200000e-07,3.148180e-01,3.152806e-07
4.700000e-12,9.400000e-07,3.260575e-01,3.204847e-07
4.800000e-12,9.600000e-07,3.374239e-01,3.255911e-07
4.900000e-12,9.800000e-07,3.489154e-01,3.306031e-07
5.000000e-12,1.000000e-06,3.605303e-01,3.355243e-07
5.100000e-12,1.020000e-06,3.720508e-01,3.396914e-07
5.200000e-12,1.040000e-06,3.832975e-01,3.426150e-07
5.300000e-12,1.060000e-06,3.941912e-01,3.441594e-07
5.400000e-12,1.080000e-06,4.047214e-01,3.444178e-07
5.500000e-12,1.100000e-06,4.149072e-01,3.435697e-07
5.600000e-12,1.120000e-06,4.247753e-01,3.418025e-07
5.700000e-12,1.140000e-06,4.343506e-01,3.392820e-07
5.800000e-12,1.160000e-06,4.436545e-01,3.361477e-07
5.900000e-12,1.180000e-06,4.527053e-01,3.325152e-07
6.000000e-12,1.200000e-06,4.615183e-01,3.284807e-07
6.100000e-12,1.220000e-06,4.701066e-01,3.241244e-07
6.200000e-12,1.240000e-06,4.784818e-01,3.195131e-07
6.300000e-12,1.260000e-06,4.866539e-01,3.147030e-07
6.400000e-12,1.280000e-06,4.946318e-01,3.097409e-07
6.500000e-12,1.300000e-06,5.024233e-01,3.046661e-07
6.600000e-12,1.320000e-06,5.100354e-01,2.995115e-07
6.700000e-12,1.340000e-06,5.174743e-01,2.943045e-07
6.800000e-12,1.360000e-06,5.247460e-01,2.890684e-07
6.900000e-12,1.380000e-06,5.318556e-01,2.838225e-07
7.000000e-12,1.400000e-06,5.388080e-01,2.785829e-07
7.100000e-12,1.420000e-06,5.456076e-01,2.733634e-07
7.200000e-12,1.440000e-06,5.522588e-01,2.681752e-07
7.300000e-12,1.460000e-06,5.587654e-01,2.630278e-07
7.400000e-12,1.480000e-06,5.651312e-01,2.579292e-07
7.500000e-12,1.500000e-06,5.713598e-01,2.528858e-07
7.600000e-12,1.520000e-06,5.774545e-01,2.479030e-07
7.700000e-12,1.540000e-06,5.834187e-01,2.429854e-07
7.800000e-12,1.560000e-06,5.892554e-01,2.381365e-07
7.900000e-12,1.580000e-06,5.949676e-01,2.333593e-07
8.000000e-12,1.600000e-06,6.005583e-01,2.286560e-07
8.100000e-12,1.620000e-06,6.060303e-01,2.240285e-07
8.200000e-12,1.640000e-06,6.113862e-01,2.194781e-07
8.300000e-12,1.660000e-06,6.166289e-01,2.150058e-07
8.400000e-12,1.680000e-06,6.217608e-01,2.106123e-07
8.500000e-12,1.700000e-06,6.267845e-01,2.062980e-07
8.600000e-12,1.720000e-06,6.317023e-01,2.020630e-07
8.700000e-12,1.740000e-06,6.365168e-01,1.979073e-07
8.800000e-12,1.760000e-06,6.412302e-01,1.938306e-07
8.900000e-12,1.780000e-06,6.458449e-01,1.898325e-07
9.000000e-12,1.800000e-06,6.503630e-01,1.859125e-07
9.100000e-12,1.820000e-06,6.547866e-01,1.820701e-07
9.200000e-12,1.840000e-06,6.591181e-01,1.783044e-07
9.300000e-12,1.860000e-06,6.633593e-01,1.746146e-07
9.400000e-12,1.880000e-06,6.675123e-01,1.710000e-07
9.500000e-12,1.900000e-06,6.715792e-01,1.674595e-07
9.600000e-12,1.920000e-06,6.755618e-01,1.639921e-07
9.700000e-12,1.940000e-06,6.794621e-01,1.605969e-07
9.800000e-12,1.960000e-06,6.832819e-01,1.572727e-07
9.900000e-12,1.980000e-06,6.870230e-01,1.540185e-07
1.000000e-11,2.000000e-06,6.906871e-01,1.508332e-07
1.010000e-11,2.020000e-06,6.942761e-01,1.477156e-07
1.020000e-11,2.040000e-06,6.977916e-01,1.446645e-07
1.030000e-11,2.060000e-06,7.012352e-01,1.416790e-07
1.040000e-11,2.080000e-06,7.046087e-01,1.387576e-07
1.050000e-11,2.100000e-06,7.079134e-01,1.358994e-07
1.060000e-11,2.120000e-06,7.111511e-01,1.331032e-07
1.070000e-11,2.140000e-06,7.143233e-01,1.303677e-07
1.080000e-11,2.160000e-06,7.174313e-01,1.276919e-07
1.090000e-11,2.180000e-06,7.204766e-01,1.250746e-07
1.100000e-11,2.200000e-06,7.234608e-01,1.225146e-07
1.110000e-11,2.220000e-06,7.263850e-01,1.200108e-07
1.120000e-11,2.240000e-06,7.292508e-01,1.175621e-07
1.130000e-11,2.260000e-06,7.320593e-01,1.151674e-07
1.140000e-11,2.280000e-06,7.348120e-01,1.128256e-07
1.150000e-11,2.300000e-06,7.375100e-01,1.105355e-07
1.160000e-11,2.320000e-06,7.401546e-01,1.082962e-07
1.170000e-11,2.340000e-06,7.427470e-01,1.061066e-07
1.180000e-11,2.360000e-06,7.452884e-01,1.039656e-07
1.190000e-11,2.380000e-06,7.477799e-01,1.018722e-07
1.200000e-11,2.400000e-06,7.502226e-01,9.982542e-08
1.210000e-11,2.420000e-06,7.526178e-01,9.782423e-08
1.220000e-11,2.440000e-06,7.549663e-01,9.586766e-08
1.230000e-11,2.460000e-06,7.572693e-01,9.395477e-08
1.240000e-11,2.480000e-06,7.595278e-01,9.208460e-08
1.250000e-11,2.500000e-06,7.617428e-01,9.025623e-08
1.260000e-11,2.520000e-06,7.639153e-01,8.846876e-08
1.270000e-11,2.540000e-06,7.660462e-01,8.672128e-08
1.280000e-11,2.560000e-06,7.681366e-01,8.501293e-08
1.290000e-11,2.580000e-06,7.701872e-01,8.334284e-08
1.300000e-11,2.600000e-06,7.721990e-01,8.171018e-08
1.310000e-11,2.620000e-06,7.741728e-01,8.011411e-08
1.320000e-11,2.640000e-06,7.761096e-01,7.855384e-08
1.330000e-11,2.660000e-06,7.780101e-01,7.702856e-08
1.340000e-11,2.680000e-06,7.798752e-01,7.553750e-08
1.350000e-11,2.700000e-06,7.817056e-01,7.407991e-08
1.360000e-11,2.720000e-06,7.835022e-01,7.265503e-08
1.370000e-11,2.740000e-06,7.852657e-01,7.126214e-08
1.380000e-11,2.760000e-06,7.869969e-01,6.990053e-08
1.390000e-11,2.780000e-06,7.886964e-01,6.856949e-08
1.400000e-11,2.800000e-06,7.903650e-01,6.726834e-08
1.410000e-11,2.820000e-06,7.920034e-01,6.599642e-08
1.420000e-11,2.840000e-06,7.936123e-01,6.475307e-08
1.430000e-11,2.860000e-06,7.951922e-01,6.353764e-08
1.440000e-11,2.880000e-06,7.967440e-01,6.234953e-08
1.450000e-11,2.900000e-06,7.982682e-01,6.118810e-08
1.460000e-11,2.920000e-06,7.997654e-01,6.005277e-08
1.470000e-11,2.940000e-06,8.012362e-01,5.894294e-08
1.490000e-11,2.980000e-06,8.041011e-01,5.679754e-08
1.500000e-11,3.000000e-06,8.054964e-01,5.576086e-08
1.510000e-11,3.020000e-06,8.068676e-01,5.474746e-08
1.520000e-11,3.040000e-06,8.082152e-01,5.375684e-08
1.530000e-11,3.060000e-06,8.095398e-01,5.278848e-08
1.540000e-11,3.080000e-06,8.108420e-01,5.184187e-08
1.550000e-11,3.100000e-06,8.121222e-01,5.091654e-08
1.560000e-11,3.120000e-06,8.133809e-01,5.001200e-08
1.570000e-11,3.140000e-06,8.146185e-01,4.912779e-08
1.580000e-11,3.160000e-06,8.158357e-01,4.826345e-08
1.590000e-11,3.180000e-06,8.170328e-01,4.741854e-08
1.600000e-11,3.200000e-06,8.182102e-01,4.659261e-08
1.610000e-11,3.220000e-06,8.193685e-01,4.578525e-08
1.620000e-11,3.240000e-06,8.205081e-01,4.499604e-08
1.630000e-11,3.260000e-06,8.216293e-01,4.422458e-08
1.640000e-11,3.280000e-06,8.227326e-01,4.347045e-08
1.650000e-11,3.300000e-06,8.238184e-01,4.273329e-08
1.660000e-11,3.320000e-06,8.248871e-01,4.201270e-08
1.670000e-11,3.340000e-06,8.259391e-01,4.130833e-08
1.680000e-11,3.360000e-06,8.269747e-01,4.061980e-08
1.690000e-11,3.380000e-06,8.279943e-01,3.994676e-08
1.700000e-11,3.400000e-06,8.289984e-01,3.928887e-08
1.710000e-11,3.420000e-06,8.299871e-01,3.864579e-08
1.720000e-11,3.440000e-06,8.309609e-01,3.801719e-08
1.730000e-11,3.460000e-06,8.319202e-01,3.740274e-08
1.740000e-11,3.480000e-06,8.328651e-01,3.680214e-08
1.750000e-11,3.500000e-06,8.337962e-01,3.621508e-08
1.760000e-11,3.520000e-06,8.347136e-01,3.564125e-08
1.770000e-11,3.540000e-06,8.356177e-01,3.508036e-08
1.780000e-11,3.560000e-06,8.365089e-01,3.453212e-08
1.790000e-11,3.580000e-06,8.373873e-01,3.399626e-08
1.800000e-11,3.600000e-06,8.382532e-01,3.347250e-08
1.810000e-11,3.620000e-06,8.391071e-01,3.296057e-08
1.820000e-11,3.640000e-06,8.399490e-01,3.246021e-08
1.830000e-11,3.660000e-06,8.407794e-01,3.197116e-08
1.840000e-11,3.680000e-06,8.415985e-01,3.149318e-08
1.850000e-11,3.700000e-06,8.424064e-01,3.102602e-08
1.860000e-11,3.720000e-06,8.432036e-01,3.056944e-08
1.870000e-11,3.740000e-06,8.439902e-01,3.012321e-08
1.880000e-11,3.760000e-06,8.447664e-01,2.968711e-08
1.890000e-11,3.780000e-06,8.455325e-01,2.926090e-08
1.900000e-11,3.800000e-06,8.462888e-01,2.884437e-08
1.910000e-11,3.820000e-06,8.470355e-01,2.843732e-08
1.920000e-11,3.840000e-06,8.477727e-01,2.803952e-08
1.930000e-11,3.860000e-06,8.485008e-01,2.765079e-08
1.940000e-11,3.880000e-06,8.492198e-01,2.727091e-08
1.950000e-11,3.900000e-06,8.499301e-01,2.689971e-08
1.960000e-11,3.920000e-06,8.506318e-01,2.653698e-08
1.970000e-11,3.940000e-06,8.513251e-01,2.618254e-08
1.980000e-11,3.960000e-06,8.520102e-01,2.583622e-08
1.990000e-11,3.980000e-06,8.526874e-01,2.549783e-08
2.000000e-11,4.000000e-06,8.533567e-01,2.516721e-08
2.010000e-11,4.020000e-06,8.540184e-01,2.484418e-08
2.020000e-11,4.040000e-06,8.546727e-01,2.452858e-08
2.030000e-11,4.060000e-06,8.553197e-01,2.422024e-08
2.040000e-11,4.080000e-06,8.559596e-01,2.391902e-08
2.050000e-11,4.100000e-06,8.565925e-01,2.362476e-08
2.060000e-11,4.120000e-06,8.572187e-01,2.333730e-08
2.070000e-11,4.140000e-06,8.578383e-01,2.305650e-08
2.080000e-11,4.160000e-06,8.584514e-01,2.278222e-08
2.090000e-11,4.180000e-06,8.590582e-01,2.251431e-08
2.100000e-11,4.200000e-06,8.596589e-01,2.225264e-08
2.110000e-11,4.220000e-06,8.602535e-01,2.199708e-08
2.120000e-11,4.240000e-06,8.608424e-01,2.174748e-08
2.130000e-11,4.260000e-06,8.614254e-01,2.150374e-08
2.140000e-11,4.280000e-06,8.620029e-01,2.126571e-08
2.150000e-11,4.300000e-06,8.625750e-01,2.103328e-08
2.160000e-11,4.320000e-06,8.631417e-01,2.080633e-08
2.170000e-11,4.340000e-06,8.637033e-01,2.058474e-08
2.180000e-11,4.360000e-06,8.642598e-01,2.036839e-08
2.190000e-11,4.380000e-06,8.648113e-01,2.015718e-08
2.200000e-11,4.400000e-06,8.653581e-01,1.995099e-08
2.210000e-11,4.420000e-06,8.659001e-01,1.974973e-08
2.220000e-11,4.440000e-06,8.664376e-01,1.955327e-08
2.230000e-11,4.460000e-06,8.669706e-01,1.936153e-08
2.240000e-11,4.480000e-06,8.674992e-01,1.917441e-08
2.250000e-11,4.500000e-06,8.680236e-01,1.899179e-08
2.260000e-11,4.520000e-06,8.685438e-01,1.881360e-08
2.270000e-11,4.540000e-06,8.690601e-01,1.863974e-08
2.280000e-11,4.560000e-06,8.695724e-01,1.847011e-08
2.290000e-11,4.580000e-06,8.700808e-01,1.830462e-08
2.300000e-11,4.600000e-06,8.705855e-01,1.814320e-08
2.310000e-11,4.620000e-06,8.710866e-01,1.798575e-08
2.320000e-11,4.640000e-06,8.715842e-01,1.783220e-08
2.330000e-11,4.660000e-06,8.720783e-01,1.768245e-08
2.340000e-11,4.680000e-06,8.725690e-01,1.753644e-08
2.350000e-11,4.700000e-06,8.730564e-01,1.739408e-08
2.360000e-11,4.720000e-06,8.735407e-01,1.725530e-08
2.370000e-11,4.740000e-06,8.740219e-01,1.712002e-08
2.380000e-11,4.760000e-06,8.745001e-01,1.698817e-08
2.390000e-11,4.780000e-06,8.749753e-01,1.685968e-08
2.400000e-11,4.800000e-06,8.754476e-01,1.673448e-08
2.410000e-11,4.820000e-06,8.759172e-01,1.661251e-08
2.420000e-11,4.840000e-06,8.763841e-01,1.649369e-08
2.430000e-11,4.860000e-06,8.768484e-01,1.637797e-08
2.440000e-11,4.880000e-06,8.773101e-01,1.626528e-08
2.450000e-11,4.900000e-06,8.777694e-01,1.615555e-08
2.460000e-11,4.920000e-06,8.782262e-01,1.604873e-08
2.470000e-11,4.940000e-06,8.786807e-01,1.594475e-08
2.480000e-11,4.960000e-06,8.791329e-01,1.584357e-08
2.490000e-11,4.980000e-06,8.795829e-01,1.574512e-08
2.500000e-11,5.000000e-06,8.800308e-01,1.564935e-08
2.510000e-11,5.020000e-06,8.804766e-01,1.555620e-08
2.520000e-11,5.040000e-06,8.809204e-01,1.546563e-08
2.530000e-11,5.060000e-06,8.813623e-01,1.537758e-08
2.540000e-11,5.080000e-06,8.818023e-01,1.529199e-08
2.550000e-11,5.100000e-06,8.822404e-01,1.520883e-08
2.560000e-11,5.120000e-06,8.826768e-01,1.512804e-08
2.570000e-11,5.140000e-06,8.831114e-01,1.504957e-08
2.580000e-11,5.160000e-06,8.835444e-01,1.497339e-08
2.590000e-11,5.180000e-06,8.839758e-01,1.489944e-08
2.600000e-11,5.200000e-06,8.844057e-01,1.482768e-08
2.610000e-11,5.220000e-06,8.848340e-01,1.475807e-08
2.620000e-11,5.240000e-06,8.852609e-01,1.469056e-08
2.630000e-11,5.260000e-06,8.856864e-01,1.462512e-08
2.640000e-11,5.280000e-06,8.861106e-01,1.456171e-08
2.650000e-11,5.300000e-06,8.865335e-01,1.450028e-08
2.660000e-11,5.320000e-06,8.869551e-01,1.444080e-08
2.670000e-11,5.340000e-06,8.873756e-01,1.438323e-08
2.680000e-11,5.360000e-06,8.877948e-01,1.432753e-08
2.690000e-11,5.380000e-06,8.882130e-01,1.427367e-08
2.700000e-11,5.400000e-06,8.886301e-01,1.422162e-08
2.710000e-11,5.420000e-06,8.890462e-01,1.417133e-08
2.720000e-11,5.440000e-06,8.894614e-01,1.412278e-08
2.730000e-11,5.460000e-06,8.898756e-01,1.407594e-08
2.740000e-11,5.480000e-06,8.902889e-01,1.403076e-08
2.750000e-11,5.500000e-06,8.907013e-01,1.398723e-08
2.760000e-11,5.520000e-06,8.911130e-01,1.394531e-08
2.770000e-11,5.540000e-06,8.915238e-01,1.390497e-08
2.780000e-11,5.560000e-06,8.919340e-01,1.386618e-08
2.790000e-11,5.580000e-06,8.923434e-01,1.382891e-08
2.800000e-11,5.600000e-06,8.927522e-01,1.379315e-08
2.810000e-11,5.620000e-06,8.931604e-01,1.375885e-08
2.820000e-11,5.640000e-06,8.935680e-01,1.372599e-08
2.830000e-11,5.660000e-06,8.939750e-01,1.369455e-08
2.840000e-11,5.680000e-06,8.943816e-01,1.366451e-08
2.850000e-11,5.700000e-06,8.947876e-01,1.363583e-08
2.860000e-11,5.720000e-06,8.951933e-01,1.360849e-08
2.870000e-11,5.740000e-06,8.955985e-01,1.358248e-08
2.880000e-11,5.760000e-06,8.960033e-01,1.355776e-08
2.890000e-11,5.780000e-06,8.964078e-01,1.353432e-08
2.900000e-11,5.800000e-06,8.968120e-01,1.351214e-08
2.910000e-11,5.820000e-06,8.972159e-01,1.349118e-08
2.920000e-11,5.840000e-06,8.976195e-01,1.347144e-08
2.930000e-11,5.860000e-06,8.980229e-01,1.345289e-08
2.940000e-11,5.880000e-06,8.984262e-01,1.343551e-08
2.950000e-11,5.900000e-06,8.988292e-01,1.341929e-08
2.960000e-11,5.920000e-06,8.992322e-01,1.340420e-08
2.970000e-11,5.940000e-06,8.996350e-01,1.339022e-08
2.980000e-11,5.960000e-06,9.000378e-01,1.337735e-08
2.990000e-11,5.980000e-06,9.004405e-01,1.336555e-08
3.000000e-11,6.000000e-06,9.008432e-01,1.335482e-08
3.010000e-11,6.020000e-06,9.012459e-01,1.334514e-08
3.020000e-11,6.040000e-06,9.016487e-01,1.333649e-08
3.030000e-11,6.060000e-06,9.020515e-01,1.332885e-08
3.040000e-11,6.080000e-06,9.024544e-01,1.332221e-08
3.050000e-11,6.100000e-06,9.028574e-01,1.331656e-08
3.060000e-11,6.120000e-06,9.032605e-01,1.331188e-08
3.070000e-11,6.140000e-06,9.036638e-01,1.330816e-08
3.080000e-11,6.160000e-06,9.040673e-01,1.330538e-08
3.090000e-11,6.180000e-06,9.044710e-01,1.330353e-08
3.100000e-11,6.200000e-06,9.048750e-01,1.330260e-08
3.110000e-11,6.220000e-06,9.052792e-01,1.330257e-08
3.120000e-11,6.240000e-06,9.056836e-01,1.330343e-08
3.130000e-11,6.260000e-06,9.060884e-01,1.330517e-08
3.140000e-11,6.280000e-06,9.064936e-01,1.330778e-08
3.150000e-11,6.300000e-06,9.068990e-01,1.331125e-08
3.160000e-11,6.320000e-06,9.073049e-01,1.331556e-08
3.170000e-11,6.340000e-06,9.077111e-01,1.332070e-08
3.180000e-11,6.360000e-06,9.081178e-01,1.332668e-08
3.190000e-11,6.380000e-06,9.085249e-01,1.333346e-08
3.200000e-11,6.400000e-06,9.089325e-01,1.334105e-08
3.210000e-11,6.420000e-06,9.093405e-01,1.334944e-08
3.220000e-11,6.440000e-06,9.097491e-01,1.335861e-08
3.230000e-11,6.460000e-06,9.101582e-01,1.336855e-08
3.240000e-11,6.480000e-06,9.105678e-01,1.337927e-08
3.250000e-11,6.500000e-06,9.109780e-01,1.339074e-08
3.260000e-11,6.520000e-06,9.113888e-01,1.340297e-08
3.270000e-11,6.540000e-06,9.118002e-01,1.341594e-08
3.280000e-11,6.560000e-06,9.122122e-01,1.342964e-08
3.290000e-11,6.580000e-06,9.126249e-01,1.344408e-08
3.300000e-11,6.600000e-06,9.130382e-01,1.345923e-08
3.310000e-11,6.620000e-06,9.134523e-01,1.347510e-08
3.320000e-11,6.640000e-06,9.138670e-01,1.349168e-08
3.330000e-11,6.660000e-06,9.142825e-01,1.350896e-08
3.340000e-11,6.680000e-06,9.146987e-01,1.352693e-08
3.350000e-11,6.700000e-06,9.151157e-01,1.354559e-08
3.360000e-11,6.720000e-06,9.155334e-01,1.356494e-08
3.370000e-11,6.740000e-06,9.159520e-01,1.358496e-08
3.380000e-11,6.760000e-06,9.163714e-01,1.360566e-08
3.390000e-11,6.780000e-06,9.167916e-01,1.362702e-08
3.400000e-11,6.800000e-06,9.172127e-01,1.364905e-08
3.410000e-11,6.820000e-06,9.176347e-01,1.367173e-08
3.420000e-11,6.840000e-06,9.180576e-01,1.369507e-08
3.430000e-11,6.860000e-06,9.184814e-01,1.371906e-08
3.440000e-11,6.880000e-06,9.189061e-01,1.374369e-08
3.450000e-11,6.900000e-06,9.193318e-01,1.376896e-08
3.460000e-11,6.920000e-06,9.197584e-01,1.379487e-08
3.470000e-11,6.940000e-06,9.201860e-01,1.382142e-08
3.480000e-11,6.960000e-06,9.206147e-01,1.384860e-08
3.490000e-11,6.980000e-06,9.210443e-01,1.387640e-08
3.500000e-11,7.000000e-06,9.214751e-01,1.390483e-08
3.510000e-11,7.020000e-06,9.219068e-01,1.393388e-08
3.520000e-11,7.040000e-06,9.223397e-01,1.396355e-08
3.530000e-11,7.060000e-06,9.227737e-01,1.399384e-08
3.540000e-11,7.080000e-06,9.232087e-01,1.402474e-08
3.550000e-11,7.100000e-06,9.236449e-01,1.405626e-08
3.560000e-11,7.120000e-06,9.240823e-01,1.408839e-08
3.570000e-11,7.140000e-06,9.245208e-01,1.412113e-08
3.580000e-11,7.160000e-06,9.249605e-01,1.415447e-08
3.590000e-11,7.180000e-06,9.254015e-01,1.418843e-08
3.600000e-11,7.200000e-06,9.258436e-01,1.422298e-08
3.610000e-11,7.220000e-06,9.262870e-01,1.425815e-08
3.620000e-11,7.240000e-06,9.267317e-01,1.429391e-08
3.630000e-11,7.260000e-06,9.271776e-01,1.433028e-08
3.640000e-11,7.280000e-06,9.276248e-01,1.436726e-08
3.650000e-11,7.300000e-06,9.280734e-01,1.440483e-08
3.660000e-11,7.320000e-06,9.285233e-01,1.444301e-08
3.670000e-11,7.340000e-06,9.289745e-01,1.448179e-08
3.680000e-11,7.360000e-06,9.294271e-01,1.452117e-08
3.690000e-11,7.380000e-06,9.298811e-01,1.456116e-08
3.700000e-11,7.400000e-06,9.303365e-01,1.460175e-08
3.710000e-11,7.420000e-06,9.307933e-01,1.464294e-08
3.720000e-11,7.440000e-06,9.312516e-01,1.468473e-08
3.730000e-11,7.460000e-06,9.317113e-01,1.472714e-08
3.740000e-11,7.480000e-06,9.321725e-01,1.477014e-08
3.750000e-11,7.500000e-06,9.326352e-01,1.481376e-08
3.760000e-11,7.520000e-06,9.330995e-01,1.485799e-08
3.770000e-11,7.540000e-06,9.335653e-01,1.490282e-08
3.780000e-11,7.560000e-06,9.340326e-01,1.494827e-08
3.790000e-11,7.580000e-06,9.345015e-01,1.499434e-08
3.800000e-11,7.600000e-06,9.349720e-01,1.504102e-08
3.810000e-11,7.620000e-06,9.354441e-01,1.508831e-08
3.820000e-11,7.640000e-06,9.359179e-01,1.513623e-08
3.830000e-11,7.660000e-06,9.363933e-01,1.518478e-08
